
**** 09/23/24 14:57:33 **** PSpice 23.1.0 (30 January 2024) *** ID# 0 ********

 ** Profile: "SCHEMATIC1-lab2_project_bias"  [ E:\electric_circuit_lab2\lab2_project-PSpiceFiles\SCHEMATIC1\lab2_project_bias.sim ] 


 ****     CIRCUIT DESCRIPTION


******************************************************************************




** Creating circuit file "lab2_project_bias.cir" 
** WARNING: THIS AUTOMATICALLY GENERATED FILE MAY BE OVERWRITTEN BY SUBSEQUENT SIMULATIONS

*Libraries: 
* Profile Libraries :
* Local Libraries :
* From [PSPICE NETLIST] section of C:\cds_spb_home\cdssetup\OrCAD_PSpiceTIPSpice_Install\23.1.0\PSpice.ini file:
.lib "nom_pspti.lib" 
.lib "nom.lib" 

*Analysis directives: 
.OPTIONS ADVCONV
.OPTIONS FILEMODELSEARCH
.PROBE64 V(alias(*)) I(alias(*)) W(alias(*)) D(alias(*)) NOISE(alias(*)) 
.INC "..\SCHEMATIC1.net" 



**** INCLUDING SCHEMATIC1.net ****
* source LAB2_PROJECT
V_V1         N00092 0 10Vdc
D_D1         N00092 N00457 Dbreak 
D_D2         N00457 N00461 Dbreak 
D_D3         N00461 N00465 Dbreak 
R_R1         0 N00465  1k TC=0,0 

**** RESUMING lab2_project_bias.cir ****
.END

**** 09/23/24 14:57:33 **** PSpice 23.1.0 (30 January 2024) *** ID# 0 ********

 ** Profile: "SCHEMATIC1-lab2_project_bias"  [ E:\electric_circuit_lab2\lab2_project-PSpiceFiles\SCHEMATIC1\lab2_project_bias.sim ] 


 ****     SMALL SIGNAL BIAS SOLUTION       TEMPERATURE =   27.000 DEG C


******************************************************************************



 NODE   VOLTAGE     NODE   VOLTAGE     NODE   VOLTAGE     NODE   VOLTAGE


(N00092)   10.0000 (N00457)    9.2907 (N00461)    8.5815 (N00465)    7.8722 




    VOLTAGE SOURCE CURRENTS
    NAME         CURRENT

    V_V1        -7.872E-03

    TOTAL POWER DISSIPATION   7.87E-02  WATTS



          JOB CONCLUDED

**** 09/23/24 14:57:33 **** PSpice 23.1.0 (30 January 2024) *** ID# 0 ********

 ** Profile: "SCHEMATIC1-lab2_project_bias"  [ E:\electric_circuit_lab2\lab2_project-PSpiceFiles\SCHEMATIC1\lab2_project_bias.sim ] 


 ****     JOB STATISTICS SUMMARY


******************************************************************************



  Total job time (using Solver 1)   =        1.30
